T4E30 11350:722 SEGGER J-Link V6.46 Log File (0000ms, 31113ms total)
T4E30 11350:722 DLL Compiled: May 23 2019 17:49:56 (0000ms, 31113ms total)
T4E30 11350:722 Logging started @ 2020-03-06 12:51 (0000ms, 31113ms total)
T4E30 11350:722 JLINK_SetWarnOutHandler(...) (0000ms, 31113ms total)
T4E30 11350:722 JLINK_OpenEx(...)
Firmware: J-Link V9 compiled May 17 2019 09:50:41
Hardware: V9.60
S/N: 63640360
Feature(s): RDI, GDB, FlashDL, FlashBP, JFlash
TELNET listener socket opened on port 19021WEBSRV 
Starting webserver (0087ms, 31200ms total)
T4E30 11350:722 WEBSRV Webserver running on local port 19080 (0087ms, 31200ms total)
T4E30 11350:722   returns O.K. (0087ms, 31200ms total)
T4E30 11350:810 JLINK_GetEmuCaps()  returns 0xB9FF7BBF (0000ms, 31200ms total)
T4E30 11350:810 JLINK_TIF_GetAvailable(...) (0000ms, 31200ms total)
T4E30 11350:810 JLINK_SetErrorOutHandler(...) (0000ms, 31200ms total)
T4E30 11350:810 JLINK_ExecCommand("ProjectFile = "F:\·ÉÆðÀ´\Flyeee\REMOTER\JLinkSettings.ini"", ...).   returns 0x00 (0002ms, 31202ms total)
T4E30 11350:812 JLINK_ExecCommand("Device = STM32F103C8", ...). Device "STM32F103C8" selected.  returns 0x00 (0001ms, 31203ms total)
T4E30 11350:813 JLINK_ExecCommand("DisableConnectionTimeout", ...).   returns 0x01 (0000ms, 31203ms total)
T4E30 11350:813 JLINK_GetHardwareVersion()  returns 0x17700 (0000ms, 31203ms total)
T4E30 11350:813 JLINK_GetDLLVersion()  returns 64600 (0000ms, 31203ms total)
T4E30 11350:813 JLINK_GetFirmwareString(...) (0000ms, 31203ms total)
T4E30 11350:813 JLINK_GetDLLVersion()  returns 64600 (0000ms, 31203ms total)
T4E30 11350:813 JLINK_GetCompileDateTime() (0000ms, 31203ms total)
T4E30 11350:813 JLINK_GetFirmwareString(...) (0000ms, 31203ms total)
T4E30 11350:813 JLINK_GetHardwareVersion()  returns 0x17700 (0000ms, 31203ms total)
T4E30 11350:814 JLINK_TIF_Select(JLINKARM_TIF_SWD)  returns 0x00 (0001ms, 31204ms total)
T4E30 11350:815 JLINK_SetSpeed(10000) (0001ms, 31205ms total)
T4E30 11350:816 JLINK_GetId() >0x10B TIF>Found SW-DP with ID 0x1BA01477 >0x0D TIF> >0x28 TIF> >0x0D TIF> >0x28 TIF> >0x0D TIF> >0x28 TIF> >0x0D TIF> >0x28 TIF> >0x0D TIF> >0x21 TIF> >0x0D TIF> >0x28 TIF> >0x0D TIF> >0x28 TIF> >0x0D TIF> >0x28 TIF> >0x0D TIF> >0x21 TIF> >0x0D TIF> >0x21 TIF> >0x0D TIF> >0x28 TIF> >0x0D TIF> >0x21 TIF> >0x0D TIF> >0x21 TIF> >0x0D TIF> >0x28 TIF> >0x0D TIF> >0x21 TIF> >0x0D TIF> >0x21 TIF> >0x0D TIF> >0x28 TIF> >0x0D TIF> >0x21 TIF> >0x0D TIF> >0x21 TIF> >0x0D TIF>
 >0x28 TIF> >0x0D TIF> >0x21 TIF> >0x0D TIF> >0x21 TIF> >0x0D TIF> >0x28 TIF> >0x0D TIF> >0x21 TIF> >0x0D TIF> >0x21 TIF> >0x0D TIF> >0x28 TIF> >0x0D TIF> >0x21 TIF> >0x0D TIF> >0x21 TIF> >0x10B TIF>Found SW-DP with ID 0x1BA01477 >0x0D TIF> >0x28 TIF> >0x0D TIF> >0x28 TIF> >0x0D TIF> >0x28 TIF> >0x0D TIF> >0x28 TIF> >0x0D TIF> >0x21 TIF> >0x0D TIF> >0x28 TIF>Scanning AP map to find all available APs >0x0D TIF> >0x28 TIF> >0x0D TIF> >0x21 TIF> >0x0D TIF> >0x21 TIF> >0x0D TIF> >0x28 TIF> >0x0D TIF>
 >0x21 TIF> >0x0D TIF> >0x21 TIF>AP[1]: Stopped AP scan as end of AP map has been reachedAP[0]: AHB-AP (IDR: 0x14770011)Iterating through AP map to find AHB-AP to use >0x42 TIF> >0x28 TIF> >0x0D TIF> >0x28 TIF> >0x0D TIF> >0x21 TIF> >0x0D TIF> >0x21 TIF> >0x42 TIF> >0x28 TIF> >0x0D TIF> >0x28 TIF> >0x0D TIF> >0x28 TIF> >0x0D TIF> >0x21 TIF> >0x0D TIF> >0x21 TIF>AP[0]: Core foundAP[0]: AHB-AP ROM base: 0xE00FF000 >0x0D TIF> >0x28 TIF> >0x0D TIF> >0x28 TIF> >0x0D TIF> >0x28 TIF> >0x0D TIF> >0x21 TIF>
 >0x0D TIF> >0x21 TIF>CPUID register: 0x411FC231. Implementer code: 0x41 (ARM)Found Cortex-M3 r1p1, Little endian. -- Max. mem block: 0x00010F28 -- CPU_ReadMem(4 bytes @ 0xE000EDF0) -- CPU_WriteMem(4 bytes @ 0xE000EDF0) -- CPU_ReadMem(4 bytes @ 0xE0002000)FPUnit: 6 code (BP) slots and 2 literal slots -- CPU_ReadMem(4 bytes @ 0xE000EDFC) -- CPU_WriteMem(4 bytes @ 0xE000EDFC) -- CPU_ReadMem(4 bytes @ 0xE0001000) -- CPU_WriteMem(4 bytes @ 0xE0001000) -- CPU_ReadMem(4 bytes @ 0xE000ED88)
 -- CPU_WriteMem(4 bytes @ 0xE000ED88) -- CPU_ReadMem(4 bytes @ 0xE000ED88) -- CPU_WriteMem(4 bytes @ 0xE000ED88)CoreSight components:ROMTbl[0] @ E00FF000 -- CPU_ReadMem(16 bytes @ 0xE00FF000) -- CPU_ReadMem(16 bytes @ 0xE000EFF0) -- CPU_ReadMem(16 bytes @ 0xE000EFE0)ROMTbl[0][0]: E000E000, CID: B105E00D, PID: 001BB000 SCS -- CPU_ReadMem(16 bytes @ 0xE0001FF0) -- CPU_ReadMem(16 bytes @ 0xE0001FE0)ROMTbl[0][1]: E0001000, CID: B105E00D, PID: 001BB002 DWT -- CPU_ReadMem(16 bytes @ 0xE0002FF0)
 -- CPU_ReadMem(16 bytes @ 0xE0002FE0)ROMTbl[0][2]: E0002000, CID: B105E00D, PID: 000BB003 FPB -- CPU_ReadMem(16 bytes @ 0xE0000FF0) -- CPU_ReadMem(16 bytes @ 0xE0000FE0)ROMTbl[0][3]: E0000000, CID: B105E00D, PID: 001BB001 ITM -- CPU_ReadMem(16 bytes @ 0xE00FF010) -- CPU_ReadMem(16 bytes @ 0xE0040FF0) -- CPU_ReadMem(16 bytes @ 0xE0040FE0)ROMTbl[0][4]: E0040000, CID: B105900D, PID: 001BB923 TPIU-Lite >0x0D TIF> >0x21 TIF>  returns 0x1BA01477 (0173ms, 31378ms total)
T4E30 11350:989 JLINK_GetDLLVersion()  returns 64600 (0000ms, 31378ms total)
T4E30 11350:989 JLINK_CORE_GetFound()  returns 0x30000FF (0000ms, 31378ms total)
T4E30 11350:989 JLINK_GetDebugInfo(0x100 = JLINKARM_ROM_TABLE_ADDR_INDEX) -- Value=0xE00FF000  returns 0x00 (0000ms, 31378ms total)
T4E30 11350:989 JLINK_GetDebugInfo(0x100 = JLINKARM_ROM_TABLE_ADDR_INDEX) -- Value=0xE00FF000  returns 0x00 (0000ms, 31378ms total)
T4E30 11350:989 JLINK_GetDebugInfo(0x101 = JLINKARM_DEBUG_INFO_ETM_ADDR_INDEX) -- Value=0x00000000  returns 0x00 (0000ms, 31378ms total)
T4E30 11350:989 JLINK_ReadMemEx(0xE0041FF0, 0x0010 Bytes, ..., Flags = 0x02000004) -- CPU_ReadMem(16 bytes @ 0xE0041FF0) - Data: 00 00 00 00 00 00 00 00 00 00 00 00 00 00 00 00  returns 0x10 (0001ms, 31379ms total)
T4E30 11350:990 JLINK_GetDebugInfo(0x102 = JLINKARM_DEBUG_INFO_MTB_ADDR_INDEX) -- Value=0x00000000  returns 0x00 (0000ms, 31379ms total)
T4E30 11350:990 JLINK_GetDebugInfo(0x103 = JLINKARM_DEBUG_INFO_TPIU_ADDR_INDEX) -- Value=0xE0040000  returns 0x00 (0000ms, 31379ms total)
T4E30 11350:990 JLINK_GetDebugInfo(0x104 = JLINKARM_DEBUG_INFO_ITM_ADDR_INDEX) -- Value=0xE0000000  returns 0x00 (0000ms, 31379ms total)
T4E30 11350:990 JLINK_GetDebugInfo(0x105 = JLINKARM_DEBUG_INFO_DWT_ADDR_INDEX) -- Value=0xE0001000  returns 0x00 (0000ms, 31379ms total)
T4E30 11350:990 JLINK_GetDebugInfo(0x106 = JLINKARM_DEBUG_INFO_FPB_ADDR_INDEX) -- Value=0xE0002000  returns 0x00 (0000ms, 31379ms total)
T4E30 11350:990 JLINK_GetDebugInfo(0x107 = JLINKARM_DEBUG_INFO_NVIC_ADDR_INDEX) -- Value=0xE000E000  returns 0x00 (0000ms, 31379ms total)
T4E30 11350:990 JLINK_GetDebugInfo(0x10C = JLINKARM_DEBUG_INFO_DBG_ADDR_INDEX) -- Value=0xE000EDF0  returns 0x00 (0000ms, 31379ms total)
T4E30 11350:990 JLINK_GetDebugInfo(0x01 = Unknown) -- Value=0x00000000  returns 0x00 (0000ms, 31379ms total)
T4E30 11350:990 JLINK_ReadMemU32(0xE000ED00, 0x0001 Items, ...) -- CPU_ReadMem(4 bytes @ 0xE000ED00) - Data: 31 C2 1F 41  returns 1 (0001ms, 31380ms total)
T4E30 11350:991 JLINK_GetDebugInfo(0x10F = JLINKARM_DEBUG_INFO_HAS_CORTEX_M_SECURITY_EXT_INDEX) -- Value=0x00000000  returns 0x00 (0000ms, 31380ms total)
T4E30 11350:991 JLINK_SetResetType(JLINKARM_CM3_RESET_TYPE_NORMAL)  returns JLINKARM_CM3_RESET_TYPE_NORMAL (0000ms, 31380ms total)
T4E30 11350:991 JLINK_Reset() -- CPU is running -- CPU_WriteMem(4 bytes @ 0xE000EDF0) -- CPU is running -- CPU_WriteMem(4 bytes @ 0xE000EDFC)Reset: Halt core after reset via DEMCR.VC_CORERESET. >0x35 TIF>Reset: Reset device via AIRCR.SYSRESETREQ. -- CPU is running -- CPU_WriteMem(4 bytes @ 0xE000ED0C) >0x0D TIF> >0x28 TIF> -- CPU_ReadMem(4 bytes @ 0xE000EDF0) -- CPU_ReadMem(4 bytes @ 0xE000EDF0) -- CPU is running -- CPU_WriteMem(4 bytes @ 0xE000EDF0) -- CPU is running
 -- CPU_WriteMem(4 bytes @ 0xE000EDFC) -- CPU_ReadMem(4 bytes @ 0xE000EDF0) -- CPU_WriteMem(4 bytes @ 0xE0002000) -- CPU_ReadMem(4 bytes @ 0xE000EDFC) -- CPU_ReadMem(4 bytes @ 0xE0001000) (0065ms, 31445ms total)
T4E30 11351:056 JLINK_ReadReg(R15 (PC))  returns 0x08000100 (0000ms, 31445ms total)
T4E30 11351:056 JLINK_ReadReg(XPSR)  returns 0x01000000 (0000ms, 31445ms total)
T4E30 11351:056 JLINK_Halt()  returns 0x00 (0000ms, 31445ms total)
T4E30 11351:056 JLINK_ReadMemU32(0xE000EDF0, 0x0001 Items, ...) -- CPU_ReadMem(4 bytes @ 0xE000EDF0) - Data: 03 00 03 00  returns 1 (0001ms, 31446ms total)
T4E30 11351:057 JLINK_WriteU32(0xE000EDF0, 0xA05F0003) -- CPU_WriteMem(4 bytes @ 0xE000EDF0)  returns 0 (0001ms, 31447ms total)
T4E30 11351:058 JLINK_WriteU32(0xE000EDFC, 0x01000000) -- CPU_WriteMem(4 bytes @ 0xE000EDFC)  returns 0 (0000ms, 31447ms total)
T4E30 11351:058 JLINK_GetHWStatus(...)  returns 0x00 (0001ms, 31448ms total)
T4E30 11351:059 JLINK_GetNumBPUnits(Type = 0xFFFFFF00)  returns 0x06 (0000ms, 31448ms total)
T4E30 11351:059 JLINK_GetNumBPUnits(Type = 0xF0)  returns 0x2000 (0000ms, 31448ms total)
T4E30 11351:059 JLINK_GetNumWPUnits()  returns 0x04 (0000ms, 31448ms total)
T4E30 11351:059 JLINK_GetSpeed()  returns 0x1770 (0000ms, 31448ms total)
T4E30 11351:059 JLINK_ReadMemU32(0xE000E004, 0x0001 Items, ...) -- CPU_ReadMem(4 bytes @ 0xE000E004) - Data: 01 00 00 00  returns 1 (0000ms, 31448ms total)
T4E30 11351:059 JLINK_ReadMemU32(0xE000E004, 0x0001 Items, ...) -- CPU_ReadMem(4 bytes @ 0xE000E004) - Data: 01 00 00 00  returns 1 (0001ms, 31449ms total)
T4E30 11351:060 JLINK_WriteMemEx(0xE0001000, 0x001C Bytes, ..., Flags = 0x02000004) - Data: 01 00 00 00 00 00 00 00 00 00 00 00 00 00 00 00 ... -- CPU_WriteMem(28 bytes @ 0xE0001000)  returns 0x1C (0001ms, 31450ms total)
T4E30 11351:061 JLINK_ReadReg(R15 (PC))  returns 0x08000100 (0000ms, 31450ms total)
T4E30 11351:061 JLINK_ReadReg(XPSR)  returns 0x01000000 (0000ms, 31450ms total)
T4E30 11351:067 JLINK_ReadMemEx(0xE0001004, 0x0004 Bytes, ..., Flags = 0x02000000) - Data: 00 00 00 00  returns 0x04 (0001ms, 31451ms total)
T4E30 11351:137 JLINK_SetResetType(JLINKARM_CM3_RESET_TYPE_NORMAL)  returns JLINKARM_CM3_RESET_TYPE_NORMAL (0001ms, 31452ms total)
T4E30 11351:138 JLINK_Reset() -- CPU_WriteMem(4 bytes @ 0xE000EDF0) -- CPU_WriteMem(4 bytes @ 0xE000EDFC)Reset: Halt core after reset via DEMCR.VC_CORERESET. >0x35 TIF>Reset: Reset device via AIRCR.SYSRESETREQ. -- CPU_WriteMem(4 bytes @ 0xE000ED0C) >0x0D TIF> >0x28 TIF> -- CPU_ReadMem(4 bytes @ 0xE000EDF0) -- CPU_ReadMem(4 bytes @ 0xE000EDF0) -- CPU_WriteMem(4 bytes @ 0xE000EDF0) -- CPU_WriteMem(4 bytes @ 0xE000EDFC) -- CPU_ReadMem(4 bytes @ 0xE000EDF0) -- CPU_WriteMem(4 bytes @ 0xE0002000)
 -- CPU_ReadMem(4 bytes @ 0xE000EDFC) -- CPU_ReadMem(4 bytes @ 0xE0001000) (0068ms, 31520ms total)
T4E30 11351:206 JLINK_ReadReg(R15 (PC))  returns 0x08000100 (0000ms, 31520ms total)
T4E30 11351:206 JLINK_ReadReg(XPSR)  returns 0x01000000 (0000ms, 31520ms total)
T4E30 11351:483 JLINK_ReadMemEx(0x08000100, 0x003C Bytes, ..., Flags = 0x02000000) -- CPU_ReadMem(64 bytes @ 0x08000100) -- Updating C cache (64 bytes @ 0x08000100) -- Read from C cache (60 bytes @ 0x08000100) - Data: 06 48 80 47 06 48 00 47 FE E7 FE E7 FE E7 FE E7 ...  returns 0x3C (0001ms, 31521ms total)
T4E30 11351:484 JLINK_ReadMemEx(0x08000100, 0x0002 Bytes, ..., Flags = 0x02000000) -- Read from C cache (2 bytes @ 0x08000100) - Data: 06 48  returns 0x02 (0000ms, 31521ms total)
T4E30 11351:484 JLINK_ReadMemEx(0x08000102, 0x0002 Bytes, ..., Flags = 0x02000000) -- Read from C cache (2 bytes @ 0x08000102) - Data: 80 47  returns 0x02 (0000ms, 31521ms total)
T4E30 11351:484 JLINK_ReadMemEx(0x08000102, 0x0002 Bytes, ..., Flags = 0x02000000) -- Read from C cache (2 bytes @ 0x08000102) - Data: 80 47  returns 0x02 (0000ms, 31521ms total)
T4E30 11351:484 JLINK_ReadMemEx(0x08000104, 0x003C Bytes, ..., Flags = 0x02000000) -- Read from C cache (60 bytes @ 0x08000104) - Data: 06 48 00 47 FE E7 FE E7 FE E7 FE E7 FE E7 FE E7 ...  returns 0x3C (0000ms, 31521ms total)
T4E30 11351:484 JLINK_ReadMemEx(0x08000104, 0x0002 Bytes, ..., Flags = 0x02000000) -- Read from C cache (2 bytes @ 0x08000104) - Data: 06 48  returns 0x02 (0000ms, 31521ms total)
T4E30 11351:551 JLINK_ReadMemEx(0x40012400, 0x004C Bytes, ..., Flags = 0x02000004) -- CPU_ReadMem(76 bytes @ 0x40012400) - Data: 00 00 00 00 00 00 00 00 00 00 00 00 00 00 00 00 ...  returns 0x4C (0001ms, 31522ms total)
T4E30 11351:552 JLINK_ReadMemEx(0x4001244C, 0x0004 Bytes, ..., Flags = 0x02000004) -- CPU_ReadMem(4 bytes @ 0x4001244C) - Data: 00 00 00 00  returns 0x04 (0001ms, 31523ms total)
T4E30 11352:834 JLINK_ReadMemEx(0x08000100, 0x003C Bytes, ..., Flags = 0x02000000) -- Read from C cache (60 bytes @ 0x08000100) - Data: 06 48 80 47 06 48 00 47 FE E7 FE E7 FE E7 FE E7 ...  returns 0x3C (0000ms, 31523ms total)
T4E30 11352:834 JLINK_ReadMemEx(0x08000100, 0x0002 Bytes, ..., Flags = 0x02000000) -- Read from C cache (2 bytes @ 0x08000100) - Data: 06 48  returns 0x02 (0000ms, 31523ms total)
T4E30 11352:834 JLINK_ReadMemEx(0x08000102, 0x0002 Bytes, ..., Flags = 0x02000000) -- Read from C cache (2 bytes @ 0x08000102) - Data: 80 47  returns 0x02 (0000ms, 31523ms total)
T4E30 11352:834 JLINK_ReadMemEx(0x08000102, 0x0002 Bytes, ..., Flags = 0x02000000) -- Read from C cache (2 bytes @ 0x08000102) - Data: 80 47  returns 0x02 (0001ms, 31524ms total)
T4E30 11352:835 JLINK_ReadMemEx(0x08000104, 0x003C Bytes, ..., Flags = 0x02000000) -- Read from C cache (60 bytes @ 0x08000104) - Data: 06 48 00 47 FE E7 FE E7 FE E7 FE E7 FE E7 FE E7 ...  returns 0x3C (0000ms, 31524ms total)
T4E30 11352:835 JLINK_ReadMemEx(0x08000104, 0x0002 Bytes, ..., Flags = 0x02000000) -- Read from C cache (2 bytes @ 0x08000104) - Data: 06 48  returns 0x02 (0000ms, 31524ms total)
T4E30 11352:953 JLINK_ReadReg(R0)  returns 0x00000001 (0001ms, 31525ms total)
T4E30 11352:954 JLINK_ReadReg(R1)  returns 0x000001F4 (0000ms, 31525ms total)
T4E30 11352:954 JLINK_ReadReg(R2)  returns 0x00000000 (0000ms, 31525ms total)
T4E30 11352:954 JLINK_ReadReg(R3)  returns 0xE000E000 (0000ms, 31525ms total)
T4E30 11352:954 JLINK_ReadReg(R4)  returns 0x08001218 (0000ms, 31525ms total)
T4E30 11352:954 JLINK_ReadReg(R5)  returns 0x08001218 (0000ms, 31525ms total)
T4E30 11352:954 JLINK_ReadReg(R6)  returns 0x00000000 (0000ms, 31525ms total)
T4E30 11352:954 JLINK_ReadReg(R7)  returns 0x00000000 (0000ms, 31525ms total)
T4E30 11352:954 JLINK_ReadReg(R8)  returns 0x00000000 (0000ms, 31525ms total)
T4E30 11352:954 JLINK_ReadReg(R9)  returns 0x20000160 (0000ms, 31525ms total)
T4E30 11352:954 JLINK_ReadReg(R10)  returns 0x00000000 (0000ms, 31525ms total)
T4E30 11352:954 JLINK_ReadReg(R11)  returns 0x00000000 (0000ms, 31525ms total)
T4E30 11352:954 JLINK_ReadReg(R12)  returns 0x0000001B (0000ms, 31525ms total)
T4E30 11352:954 JLINK_ReadReg(R13 (SP))  returns 0x20000458 (0000ms, 31525ms total)
T4E30 11352:954 JLINK_ReadReg(R14)  returns 0xFFFFFFFF (0000ms, 31525ms total)
T4E30 11352:954 JLINK_ReadReg(R15 (PC))  returns 0x08000100 (0000ms, 31525ms total)
T4E30 11352:954 JLINK_ReadReg(XPSR)  returns 0x01000000 (0000ms, 31525ms total)
T4E30 11352:954 JLINK_ReadReg(MSP)  returns 0x20000458 (0000ms, 31525ms total)
T4E30 11352:954 JLINK_ReadReg(PSP)  returns 0x20001000 (0000ms, 31525ms total)
T4E30 11352:954 JLINK_ReadReg(CFBP)  returns 0x00000000 (0000ms, 31525ms total)
TB114 11353:073 JLINK_ReadMemEx(0x08000100, 0x0002 Bytes, ..., Flags = 0x02000000) -- Read from C cache (2 bytes @ 0x08000100) - Data: 06 48  returns 0x02 (0000ms, 31525ms total)
TB114 11353:073 JLINK_SetBPEx(Addr = 0x08001144, Type = 0xFFFFFFF2)  returns 0x00000001 (0000ms, 31525ms total)
TB114 11353:073 JLINK_Go() -- CPU_WriteMem(4 bytes @ 0xE0002000) -- CPU_ReadMem(4 bytes @ 0xE0001000) -- CPU_WriteMem(4 bytes @ 0xE0002008) -- CPU_WriteMem(4 bytes @ 0xE000200C) -- CPU_WriteMem(4 bytes @ 0xE0002010) -- CPU_WriteMem(4 bytes @ 0xE0002014) -- CPU_WriteMem(4 bytes @ 0xE0002018) -- CPU_WriteMem(4 bytes @ 0xE000201C) -- CPU_WriteMem(4 bytes @ 0xE0001004) (0005ms, 31530ms total)
TB114 11353:178 JLINK_IsHalted()  returns TRUE (0002ms, 31532ms total)
TB114 11353:180 JLINK_Halt()  returns 0x00 (0000ms, 31530ms total)
TB114 11353:181 JLINK_IsHalted()  returns TRUE (0000ms, 31531ms total)
TB114 11353:181 JLINK_IsHalted()  returns TRUE (0000ms, 31531ms total)
TB114 11353:181 JLINK_IsHalted()  returns TRUE (0000ms, 31531ms total)
TB114 11353:181 JLINK_ReadReg(R15 (PC))  returns 0x08001144 (0000ms, 31531ms total)
TB114 11353:181 JLINK_ReadReg(XPSR)  returns 0x61000000 (0000ms, 31531ms total)
TB114 11353:181 JLINK_ClrBPEx(BPHandle = 0x00000001)  returns 0x00 (0000ms, 31531ms total)
TB114 11353:181 JLINK_ReadMemU32(0xE000ED30, 0x0001 Items, ...) -- CPU_ReadMem(4 bytes @ 0xE000ED30) - Data: 02 00 00 00  returns 1 (0001ms, 31532ms total)
TB114 11353:182 JLINK_ReadMemU32(0xE0001028, 0x0001 Items, ...) -- CPU_ReadMem(4 bytes @ 0xE0001028) - Data: 00 00 00 00  returns 1 (0000ms, 31532ms total)
TB114 11353:182 JLINK_ReadMemU32(0xE0001038, 0x0001 Items, ...) -- CPU_ReadMem(4 bytes @ 0xE0001038) - Data: 00 02 00 00  returns 1 (0001ms, 31533ms total)
TB114 11353:183 JLINK_ReadMemU32(0xE0001048, 0x0001 Items, ...) -- CPU_ReadMem(4 bytes @ 0xE0001048) - Data: 00 00 00 00  returns 1 (0000ms, 31533ms total)
TB114 11353:183 JLINK_ReadMemU32(0xE0001058, 0x0001 Items, ...) -- CPU_ReadMem(4 bytes @ 0xE0001058) - Data: 00 00 00 00  returns 1 (0001ms, 31534ms total)
TB114 11353:184 JLINK_ReadReg(R0)  returns 0x08001145 (0000ms, 31534ms total)
TB114 11353:184 JLINK_ReadReg(R1)  returns 0x20000458 (0000ms, 31534ms total)
TB114 11353:184 JLINK_ReadReg(R2)  returns 0x00000000 (0000ms, 31534ms total)
TB114 11353:184 JLINK_ReadReg(R3)  returns 0x08001061 (0000ms, 31534ms total)
TB114 11353:184 JLINK_ReadReg(R4)  returns 0x08001218 (0000ms, 31534ms total)
TB114 11353:184 JLINK_ReadReg(R5)  returns 0x08001218 (0000ms, 31534ms total)
TB114 11353:184 JLINK_ReadReg(R6)  returns 0x00000000 (0000ms, 31534ms total)
TB114 11353:184 JLINK_ReadReg(R7)  returns 0x00000000 (0000ms, 31534ms total)
TB114 11353:184 JLINK_ReadReg(R8)  returns 0x00000000 (0000ms, 31534ms total)
TB114 11353:184 JLINK_ReadReg(R9)  returns 0x20000160 (0000ms, 31534ms total)
TB114 11353:184 JLINK_ReadReg(R10)  returns 0x00000000 (0000ms, 31534ms total)
TB114 11353:184 JLINK_ReadReg(R11)  returns 0x00000000 (0000ms, 31534ms total)
TB114 11353:184 JLINK_ReadReg(R12)  returns 0x0000001B (0000ms, 31534ms total)
TB114 11353:184 JLINK_ReadReg(R13 (SP))  returns 0x20000458 (0000ms, 31534ms total)
TB114 11353:184 JLINK_ReadReg(R14)  returns 0x08000165 (0000ms, 31534ms total)
TB114 11353:185 JLINK_ReadReg(R15 (PC))  returns 0x08001144 (0000ms, 31535ms total)
TB114 11353:185 JLINK_ReadReg(XPSR)  returns 0x61000000 (0000ms, 31535ms total)
TB114 11353:185 JLINK_ReadReg(MSP)  returns 0x20000458 (0000ms, 31535ms total)
TB114 11353:185 JLINK_ReadReg(PSP)  returns 0x20001000 (0000ms, 31535ms total)
TB114 11353:185 JLINK_ReadReg(CFBP)  returns 0x00000000 (0000ms, 31535ms total)
T4E30 11353:186 JLINK_ReadMemEx(0x20000434, 0x0020 Bytes, ..., Flags = 0x02000000) -- CPU_ReadMem(128 bytes @ 0x20000400) -- Updating C cache (128 bytes @ 0x20000400) -- Read from C cache (32 bytes @ 0x20000434) - Data: 00 00 00 00 00 00 00 00 00 00 00 00 00 00 00 00 ...  returns 0x20 (0002ms, 31537ms total)
T4E30 11353:189 JLINK_ReadMemEx(0x20000434, 0x0020 Bytes, ..., Flags = 0x02000000) -- Read from C cache (32 bytes @ 0x20000434) - Data: 00 00 00 00 00 00 00 00 00 00 00 00 00 00 00 00 ...  returns 0x20 (0000ms, 31537ms total)
T4E30 11353:189 JLINK_ReadMemEx(0x40012400, 0x004C Bytes, ..., Flags = 0x02000004) -- CPU_ReadMem(76 bytes @ 0x40012400) - Data: 00 00 00 00 00 00 00 00 00 00 00 00 00 00 00 00 ...  returns 0x4C (0001ms, 31538ms total)
T4E30 11353:190 JLINK_ReadMemEx(0x4001244C, 0x0004 Bytes, ..., Flags = 0x02000004) -- CPU_ReadMem(4 bytes @ 0x4001244C) - Data: 00 00 00 00  returns 0x04 (0001ms, 31539ms total)
T4E30 11353:193 JLINK_ReadMemEx(0x08001144, 0x003C Bytes, ..., Flags = 0x02000000) -- CPU_ReadMem(64 bytes @ 0x08001140) -- Updating C cache (64 bytes @ 0x08001140) -- Read from C cache (60 bytes @ 0x08001144) - Data: 8A B0 24 22 0C A1 01 A8 FE F7 EA FF FF F7 FD F8 ...  returns 0x3C (0001ms, 31540ms total)
T4E30 11353:194 JLINK_ReadMemEx(0x08001144, 0x0002 Bytes, ..., Flags = 0x02000000) -- Read from C cache (2 bytes @ 0x08001144) - Data: 8A B0  returns 0x02 (0000ms, 31540ms total)
T4E30 11353:194 JLINK_ReadMemEx(0x08001146, 0x0002 Bytes, ..., Flags = 0x02000000) -- Read from C cache (2 bytes @ 0x08001146) - Data: 24 22  returns 0x02 (0001ms, 31541ms total)
T4E30 11353:195 JLINK_ReadMemEx(0x08001146, 0x0002 Bytes, ..., Flags = 0x02000000) -- Read from C cache (2 bytes @ 0x08001146) - Data: 24 22  returns 0x02 (0000ms, 31541ms total)
T4E30 11353:195 JLINK_ReadMemEx(0x08001148, 0x003C Bytes, ..., Flags = 0x02000000) -- CPU_ReadMem(64 bytes @ 0x08001180) -- Updating C cache (64 bytes @ 0x08001180) -- Read from C cache (60 bytes @ 0x08001148) - Data: 0C A1 01 A8 FE F7 EA FF FF F7 FD F8 00 20 12 49 ...  returns 0x3C (0000ms, 31541ms total)
T4E30 11353:195 JLINK_ReadMemEx(0x08001148, 0x0002 Bytes, ..., Flags = 0x02000000) -- Read from C cache (2 bytes @ 0x08001148) - Data: 0C A1  returns 0x02 (0000ms, 31541ms total)
T4E30 11356:130 JLINK_ReadMemEx(0x08001148, 0x003C Bytes, ..., Flags = 0x02000000) -- Read from C cache (60 bytes @ 0x08001148) - Data: 0C A1 01 A8 FE F7 EA FF FF F7 FD F8 00 20 12 49 ...  returns 0x3C (0001ms, 31542ms total)
T4E30 11356:131 JLINK_ReadMemEx(0x08001148, 0x0002 Bytes, ..., Flags = 0x02000000) -- Read from C cache (2 bytes @ 0x08001148) - Data: 0C A1  returns 0x02 (0000ms, 31542ms total)
T4E30 11356:131 JLINK_ReadMemEx(0x0800114A, 0x0002 Bytes, ..., Flags = 0x02000000) -- Read from C cache (2 bytes @ 0x0800114A) - Data: 01 A8  returns 0x02 (0000ms, 31542ms total)
T4E30 11356:131 JLINK_ReadMemEx(0x0800114A, 0x0002 Bytes, ..., Flags = 0x02000000) -- Read from C cache (2 bytes @ 0x0800114A) - Data: 01 A8  returns 0x02 (0000ms, 31542ms total)
T4E30 11356:131 JLINK_ReadMemEx(0x0800114C, 0x003C Bytes, ..., Flags = 0x02000000) -- Read from C cache (60 bytes @ 0x0800114C) - Data: FE F7 EA FF FF F7 FD F8 00 20 12 49 08 60 FF F7 ...  returns 0x3C (0000ms, 31542ms total)
T4E30 11356:131 JLINK_ReadMemEx(0x0800114C, 0x0002 Bytes, ..., Flags = 0x02000000) -- Read from C cache (2 bytes @ 0x0800114C) - Data: FE F7  returns 0x02 (0000ms, 31542ms total)
TB114 11356:363 JLINK_ReadMemEx(0x08001144, 0x0002 Bytes, ..., Flags = 0x02000000) -- Read from C cache (2 bytes @ 0x08001144) - Data: 8A B0  returns 0x02 (0000ms, 31542ms total)
TB114 11356:363 JLINK_Step() -- Read from C cache (2 bytes @ 0x08001144) -- CPU_ReadMem(4 bytes @ 0xE000ED18) -- CPU_WriteMem(4 bytes @ 0xE000ED18) -- CPU_ReadMem(4 bytes @ 0xE000ED18) -- CPU_WriteMem(4 bytes @ 0xE000ED18) -- CPU_ReadMem(4 bytes @ 0xE0001004) -- Simulated  returns 0x00 (0004ms, 31546ms total)
TB114 11356:367 JLINK_ReadReg(R15 (PC))  returns 0x08001146 (0000ms, 31546ms total)
TB114 11356:367 JLINK_ReadReg(XPSR)  returns 0x61000000 (0000ms, 31546ms total)
TB114 11356:367 JLINK_ReadReg(R0)  returns 0x08001145 (0000ms, 31546ms total)
TB114 11356:367 JLINK_ReadReg(R1)  returns 0x20000458 (0000ms, 31546ms total)
TB114 11356:367 JLINK_ReadReg(R2)  returns 0x00000000 (0000ms, 31546ms total)
TB114 11356:367 JLINK_ReadReg(R3)  returns 0x08001061 (0000ms, 31546ms total)
TB114 11356:367 JLINK_ReadReg(R4)  returns 0x08001218 (0000ms, 31546ms total)
TB114 11356:367 JLINK_ReadReg(R5)  returns 0x08001218 (0000ms, 31546ms total)
TB114 11356:367 JLINK_ReadReg(R6)  returns 0x00000000 (0000ms, 31546ms total)
TB114 11356:367 JLINK_ReadReg(R7)  returns 0x00000000 (0000ms, 31546ms total)
TB114 11356:367 JLINK_ReadReg(R8)  returns 0x00000000 (0000ms, 31546ms total)
TB114 11356:367 JLINK_ReadReg(R9)  returns 0x20000160 (0000ms, 31546ms total)
TB114 11356:367 JLINK_ReadReg(R10)  returns 0x00000000 (0000ms, 31546ms total)
TB114 11356:367 JLINK_ReadReg(R11)  returns 0x00000000 (0000ms, 31546ms total)
TB114 11356:367 JLINK_ReadReg(R12)  returns 0x0000001B (0000ms, 31546ms total)
TB114 11356:367 JLINK_ReadReg(R13 (SP))  returns 0x20000430 (0000ms, 31546ms total)
TB114 11356:367 JLINK_ReadReg(R14)  returns 0x08000165 (0000ms, 31546ms total)
TB114 11356:367 JLINK_ReadReg(R15 (PC))  returns 0x08001146 (0000ms, 31546ms total)
TB114 11356:367 JLINK_ReadReg(XPSR)  returns 0x61000000 (0000ms, 31546ms total)
TB114 11356:367 JLINK_ReadReg(MSP)  returns 0x20000430 (0000ms, 31546ms total)
TB114 11356:367 JLINK_ReadReg(PSP)  returns 0x20001000 (0000ms, 31546ms total)
TB114 11356:367 JLINK_ReadReg(CFBP)  returns 0x00000000 (0000ms, 31546ms total)
T4E30 11356:367 JLINK_ReadMemEx(0x20000434, 0x0020 Bytes, ..., Flags = 0x02000000) -- Read from C cache (32 bytes @ 0x20000434) - Data: 00 00 00 00 00 00 00 00 00 00 00 00 00 00 00 00 ...  returns 0x20 (0001ms, 31547ms total)
T4E30 11356:368 JLINK_ReadMemEx(0x40012400, 0x004C Bytes, ..., Flags = 0x02000004) -- CPU_ReadMem(76 bytes @ 0x40012400) - Data: 00 00 00 00 00 00 00 00 00 00 00 00 00 00 00 00 ...  returns 0x4C (0001ms, 31548ms total)
T4E30 11356:369 JLINK_ReadMemEx(0x4001244C, 0x0004 Bytes, ..., Flags = 0x02000004) -- CPU_ReadMem(4 bytes @ 0x4001244C) - Data: 00 00 00 00  returns 0x04 (0000ms, 31548ms total)
TB114 11357:266 JLINK_ReadMemEx(0x08001146, 0x0002 Bytes, ..., Flags = 0x02000000) -- Read from C cache (2 bytes @ 0x08001146) - Data: 24 22  returns 0x02 (0000ms, 31548ms total)
TB114 11357:266 JLINK_ReadMemEx(0x08001148, 0x003C Bytes, ..., Flags = 0x02000000) -- Read from C cache (60 bytes @ 0x08001148) - Data: 0C A1 01 A8 FE F7 EA FF FF F7 FD F8 00 20 12 49 ...  returns 0x3C (0000ms, 31548ms total)
TB114 11357:266 JLINK_ReadMemEx(0x08001148, 0x0002 Bytes, ..., Flags = 0x02000000) -- Read from C cache (2 bytes @ 0x08001148) - Data: 0C A1  returns 0x02 (0000ms, 31548ms total)
TB114 11357:266 JLINK_ReadMemEx(0x08001146, 0x0002 Bytes, ..., Flags = 0x02000000) -- Read from C cache (2 bytes @ 0x08001146) - Data: 24 22  returns 0x02 (0000ms, 31548ms total)
TB114 11357:266 JLINK_Step() -- Read from C cache (2 bytes @ 0x08001146) -- Simulated  returns 0x00 (0001ms, 31549ms total)
TB114 11357:267 JLINK_ReadReg(R15 (PC))  returns 0x08001148 (0000ms, 31549ms total)
TB114 11357:267 JLINK_ReadReg(XPSR)  returns 0x21000000 (0000ms, 31549ms total)
TB114 11357:267 JLINK_ReadMemEx(0x08001148, 0x003C Bytes, ..., Flags = 0x02000000) -- Read from C cache (60 bytes @ 0x08001148) - Data: 0C A1 01 A8 FE F7 EA FF FF F7 FD F8 00 20 12 49 ...  returns 0x3C (0000ms, 31549ms total)
TB114 11357:267 JLINK_ReadMemEx(0x08001148, 0x0002 Bytes, ..., Flags = 0x02000000) -- Read from C cache (2 bytes @ 0x08001148) - Data: 0C A1  returns 0x02 (0000ms, 31549ms total)
TB114 11357:267 JLINK_ReadMemEx(0x0800114A, 0x0002 Bytes, ..., Flags = 0x02000000) -- Read from C cache (2 bytes @ 0x0800114A) - Data: 01 A8  returns 0x02 (0000ms, 31549ms total)
TB114 11357:267 JLINK_Step() -- Read from C cache (2 bytes @ 0x08001148) -- Simulated  returns 0x00 (0000ms, 31549ms total)
TB114 11357:267 JLINK_ReadReg(R15 (PC))  returns 0x0800114A (0000ms, 31549ms total)
TB114 11357:267 JLINK_ReadReg(XPSR)  returns 0x21000000 (0000ms, 31549ms total)
TB114 11357:267 JLINK_ReadMemEx(0x0800114A, 0x0002 Bytes, ..., Flags = 0x02000000) -- Read from C cache (2 bytes @ 0x0800114A) - Data: 01 A8  returns 0x02 (0000ms, 31549ms total)
TB114 11357:267 JLINK_ReadMemEx(0x0800114C, 0x003C Bytes, ..., Flags = 0x02000000) -- Read from C cache (60 bytes @ 0x0800114C) - Data: FE F7 EA FF FF F7 FD F8 00 20 12 49 08 60 FF F7 ...  returns 0x3C (0000ms, 31549ms total)
TB114 11357:267 JLINK_ReadMemEx(0x0800114C, 0x0002 Bytes, ..., Flags = 0x02000000) -- Read from C cache (2 bytes @ 0x0800114C) - Data: FE F7  returns 0x02 (0000ms, 31549ms total)
TB114 11357:268 JLINK_Step() -- Read from C cache (2 bytes @ 0x0800114A) -- Simulated  returns 0x00 (0000ms, 31550ms total)
TB114 11357:268 JLINK_ReadReg(R15 (PC))  returns 0x0800114C (0000ms, 31550ms total)
TB114 11357:268 JLINK_ReadReg(XPSR)  returns 0x21000000 (0000ms, 31550ms total)
TB114 11357:268 JLINK_ReadMemEx(0x0800114C, 0x003C Bytes, ..., Flags = 0x02000000) -- Read from C cache (60 bytes @ 0x0800114C) - Data: FE F7 EA FF FF F7 FD F8 00 20 12 49 08 60 FF F7 ...  returns 0x3C (0000ms, 31550ms total)
TB114 11357:268 JLINK_ReadMemEx(0x0800114C, 0x0002 Bytes, ..., Flags = 0x02000000) -- Read from C cache (2 bytes @ 0x0800114C) - Data: FE F7  returns 0x02 (0000ms, 31550ms total)
TB114 11357:268 JLINK_ReadMemEx(0x0800114E, 0x0002 Bytes, ..., Flags = 0x02000000) -- Read from C cache (2 bytes @ 0x0800114E) - Data: EA FF  returns 0x02 (0000ms, 31550ms total)
TB114 11357:268 JLINK_SetBPEx(Addr = 0x08001150, Type = 0xFFFFFFF2)  returns 0x00000002 (0000ms, 31550ms total)
TB114 11357:268 JLINK_Go() -- CPU_WriteMem(4 bytes @ 0xE0002000) -- CPU_ReadMem(4 bytes @ 0xE0001000) -- CPU_WriteMem(4 bytes @ 0xE0002008) -- CPU_WriteMem(4 bytes @ 0xE0001004) (0005ms, 31555ms total)
TB114 11357:373 JLINK_IsHalted()  returns TRUE (0003ms, 31558ms total)
TB114 11357:376 JLINK_Halt()  returns 0x00 (0000ms, 31555ms total)
TB114 11357:376 JLINK_IsHalted()  returns TRUE (0000ms, 31555ms total)
TB114 11357:376 JLINK_IsHalted()  returns TRUE (0000ms, 31555ms total)
TB114 11357:376 JLINK_IsHalted()  returns TRUE (0000ms, 31555ms total)
TB114 11357:376 JLINK_ReadReg(R15 (PC))  returns 0x08001150 (0000ms, 31555ms total)
TB114 11357:376 JLINK_ReadReg(XPSR)  returns 0x81000000 (0000ms, 31555ms total)
TB114 11357:376 JLINK_ClrBPEx(BPHandle = 0x00000002)  returns 0x00 (0000ms, 31555ms total)
TB114 11357:376 JLINK_ReadMemU32(0xE000ED30, 0x0001 Items, ...) -- CPU_ReadMem(4 bytes @ 0xE000ED30) - Data: 02 00 00 00  returns 1 (0001ms, 31556ms total)
TB114 11357:377 JLINK_ReadMemU32(0xE0001028, 0x0001 Items, ...) -- CPU_ReadMem(4 bytes @ 0xE0001028) - Data: 00 00 00 00  returns 1 (0000ms, 31556ms total)
TB114 11357:377 JLINK_ReadMemU32(0xE0001038, 0x0001 Items, ...) -- CPU_ReadMem(4 bytes @ 0xE0001038) - Data: 00 02 00 00  returns 1 (0001ms, 31557ms total)
TB114 11357:378 JLINK_ReadMemU32(0xE0001048, 0x0001 Items, ...) -- CPU_ReadMem(4 bytes @ 0xE0001048) - Data: 00 00 00 00  returns 1 (0001ms, 31558ms total)
TB114 11357:379 JLINK_ReadMemU32(0xE0001058, 0x0001 Items, ...) -- CPU_ReadMem(4 bytes @ 0xE0001058) - Data: 00 00 00 00  returns 1 (0000ms, 31558ms total)
TB114 11357:379 JLINK_ReadReg(R0)  returns 0x20000458 (0000ms, 31558ms total)
TB114 11357:380 JLINK_ReadReg(R1)  returns 0x080011A0 (0000ms, 31558ms total)
TB114 11357:380 JLINK_ReadReg(R2)  returns 0xFFFFFFFF (0000ms, 31558ms total)
TB114 11357:380 JLINK_ReadReg(R3)  returns 0x0000003F (0000ms, 31558ms total)
TB114 11357:380 JLINK_ReadReg(R4)  returns 0x08001218 (0000ms, 31558ms total)
TB114 11357:380 JLINK_ReadReg(R5)  returns 0x08001218 (0000ms, 31558ms total)
TB114 11357:380 JLINK_ReadReg(R6)  returns 0x00000000 (0000ms, 31558ms total)
TB114 11357:380 JLINK_ReadReg(R7)  returns 0x00000000 (0000ms, 31558ms total)
TB114 11357:380 JLINK_ReadReg(R8)  returns 0x00000000 (0000ms, 31558ms total)
TB114 11357:380 JLINK_ReadReg(R9)  returns 0x20000160 (0000ms, 31558ms total)
TB114 11357:380 JLINK_ReadReg(R10)  returns 0x00000000 (0000ms, 31558ms total)
TB114 11357:380 JLINK_ReadReg(R11)  returns 0x00000000 (0000ms, 31558ms total)
TB114 11357:380 JLINK_ReadReg(R12)  returns 0x0000001B (0000ms, 31558ms total)
TB114 11357:380 JLINK_ReadReg(R13 (SP))  returns 0x20000430 (0000ms, 31558ms total)
TB114 11357:380 JLINK_ReadReg(R14)  returns 0x08001151 (0000ms, 31558ms total)
TB114 11357:380 JLINK_ReadReg(R15 (PC))  returns 0x08001150 (0000ms, 31558ms total)
TB114 11357:380 JLINK_ReadReg(XPSR)  returns 0x81000000 (0000ms, 31558ms total)
TB114 11357:380 JLINK_ReadReg(MSP)  returns 0x20000430 (0000ms, 31558ms total)
TB114 11357:380 JLINK_ReadReg(PSP)  returns 0x20001000 (0000ms, 31558ms total)
TB114 11357:380 JLINK_ReadReg(CFBP)  returns 0x00000000 (0000ms, 31558ms total)
T4E30 11357:380 JLINK_ReadMemEx(0x20000434, 0x0020 Bytes, ..., Flags = 0x02000000) -- CPU_ReadMem(128 bytes @ 0x20000400) -- Updating C cache (128 bytes @ 0x20000400) -- Read from C cache (32 bytes @ 0x20000434) - Data: 43 61 6E 20 79 6F 75 20 67 6F 20 6F 75 74 20 6F ...  returns 0x20 (0001ms, 31559ms total)
T4E30 11357:382 JLINK_ReadMemEx(0x40012400, 0x004C Bytes, ..., Flags = 0x02000004) -- CPU_ReadMem(76 bytes @ 0x40012400) - Data: 00 00 00 00 00 00 00 00 00 00 00 00 00 00 00 00 ...  returns 0x4C (0001ms, 31560ms total)
T4E30 11357:383 JLINK_ReadMemEx(0x4001244C, 0x0004 Bytes, ..., Flags = 0x02000004) -- CPU_ReadMem(4 bytes @ 0x4001244C) - Data: 00 00 00 00  returns 0x04 (0000ms, 31560ms total)
T4E30 11357:386 JLINK_ReadMemEx(0x08001150, 0x003C Bytes, ..., Flags = 0x02000000) -- CPU_ReadMem(128 bytes @ 0x08001140) -- Updating C cache (128 bytes @ 0x08001140) -- Read from C cache (60 bytes @ 0x08001150) - Data: FF F7 FD F8 00 20 12 49 08 60 FF F7 51 FB 18 B1 ...  returns 0x3C (0001ms, 31561ms total)
T4E30 11357:387 JLINK_ReadMemEx(0x08001150, 0x0002 Bytes, ..., Flags = 0x02000000) -- Read from C cache (2 bytes @ 0x08001150) - Data: FF F7  returns 0x02 (0000ms, 31561ms total)
T4E30 11357:387 JLINK_ReadMemEx(0x08001152, 0x0002 Bytes, ..., Flags = 0x02000000) -- Read from C cache (2 bytes @ 0x08001152) - Data: FD F8  returns 0x02 (0000ms, 31561ms total)
TB114 11357:766 JLINK_ReadMemEx(0x08001150, 0x0002 Bytes, ..., Flags = 0x02000000) -- Read from C cache (2 bytes @ 0x08001150) - Data: FF F7  returns 0x02 (0000ms, 31561ms total)
TB114 11357:766 JLINK_SetBPEx(Addr = 0x08001154, Type = 0xFFFFFFF2)  returns 0x00000003 (0000ms, 31561ms total)
TB114 11357:766 JLINK_Go() -- CPU_WriteMem(4 bytes @ 0xE0002000) -- CPU_ReadMem(4 bytes @ 0xE0001000) -- CPU_WriteMem(4 bytes @ 0xE0002008) (0003ms, 31564ms total)
TB114 11357:869 JLINK_IsHalted()  returns TRUE (0003ms, 31567ms total)
TB114 11357:872 JLINK_Halt()  returns 0x00 (0000ms, 31564ms total)
TB114 11357:872 JLINK_IsHalted()  returns TRUE (0000ms, 31564ms total)
TB114 11357:872 JLINK_IsHalted()  returns TRUE (0000ms, 31564ms total)
TB114 11357:872 JLINK_IsHalted()  returns TRUE (0000ms, 31564ms total)
TB114 11357:872 JLINK_ReadReg(R15 (PC))  returns 0x08001154 (0000ms, 31564ms total)
TB114 11357:872 JLINK_ReadReg(XPSR)  returns 0x21000000 (0000ms, 31564ms total)
TB114 11357:872 JLINK_ClrBPEx(BPHandle = 0x00000003)  returns 0x00 (0000ms, 31564ms total)
TB114 11357:872 JLINK_ReadMemU32(0xE000ED30, 0x0001 Items, ...) -- CPU_ReadMem(4 bytes @ 0xE000ED30) - Data: 02 00 00 00  returns 1 (0001ms, 31565ms total)
TB114 11357:873 JLINK_ReadMemU32(0xE0001028, 0x0001 Items, ...) -- CPU_ReadMem(4 bytes @ 0xE0001028) - Data: 00 00 00 00  returns 1 (0000ms, 31565ms total)
TB114 11357:873 JLINK_ReadMemU32(0xE0001038, 0x0001 Items, ...) -- CPU_ReadMem(4 bytes @ 0xE0001038) - Data: 00 02 00 00  returns 1 (0001ms, 31566ms total)
TB114 11357:874 JLINK_ReadMemU32(0xE0001048, 0x0001 Items, ...) -- CPU_ReadMem(4 bytes @ 0xE0001048) - Data: 00 00 00 00  returns 1 (0001ms, 31567ms total)
TB114 11357:875 JLINK_ReadMemU32(0xE0001058, 0x0001 Items, ...) -- CPU_ReadMem(4 bytes @ 0xE0001058) - Data: 00 00 00 00  returns 1 (0001ms, 31568ms total)
TB114 11357:876 JLINK_ReadReg(R0)  returns 0x40012400 (0000ms, 31568ms total)
TB114 11357:876 JLINK_ReadReg(R1)  returns 0x00000001 (0000ms, 31568ms total)
TB114 11357:876 JLINK_ReadReg(R2)  returns 0x005E0103 (0000ms, 31568ms total)
TB114 11357:876 JLINK_ReadReg(R3)  returns 0x00000006 (0000ms, 31568ms total)
TB114 11357:876 JLINK_ReadReg(R4)  returns 0x08001218 (0000ms, 31568ms total)
TB114 11357:876 JLINK_ReadReg(R5)  returns 0x08001218 (0000ms, 31568ms total)
TB114 11357:876 JLINK_ReadReg(R6)  returns 0x00000000 (0000ms, 31568ms total)
TB114 11357:876 JLINK_ReadReg(R7)  returns 0x00000000 (0000ms, 31568ms total)
TB114 11357:876 JLINK_ReadReg(R8)  returns 0x00000000 (0000ms, 31568ms total)
TB114 11357:876 JLINK_ReadReg(R9)  returns 0x20000160 (0000ms, 31568ms total)
TB114 11357:876 JLINK_ReadReg(R10)  returns 0x00000000 (0000ms, 31568ms total)
TB114 11357:876 JLINK_ReadReg(R11)  returns 0x00000000 (0000ms, 31568ms total)
TB114 11357:876 JLINK_ReadReg(R12)  returns 0x0000001B (0000ms, 31568ms total)
TB114 11357:876 JLINK_ReadReg(R13 (SP))  returns 0x20000430 (0000ms, 31568ms total)
TB114 11357:876 JLINK_ReadReg(R14)  returns 0x08000755 (0000ms, 31568ms total)
TB114 11357:876 JLINK_ReadReg(R15 (PC))  returns 0x08001154 (0000ms, 31568ms total)
TB114 11357:876 JLINK_ReadReg(XPSR)  returns 0x21000000 (0000ms, 31568ms total)
TB114 11357:876 JLINK_ReadReg(MSP)  returns 0x20000430 (0000ms, 31568ms total)
TB114 11357:876 JLINK_ReadReg(PSP)  returns 0x20001000 (0000ms, 31568ms total)
TB114 11357:876 JLINK_ReadReg(CFBP)  returns 0x00000000 (0000ms, 31568ms total)
T4E30 11357:877 JLINK_ReadMemEx(0x20000434, 0x0020 Bytes, ..., Flags = 0x02000000) -- CPU_ReadMem(128 bytes @ 0x20000400) -- Updating C cache (128 bytes @ 0x20000400) -- Read from C cache (32 bytes @ 0x20000434) - Data: 43 61 6E 20 79 6F 75 20 67 6F 20 6F 75 74 20 6F ...  returns 0x20 (0001ms, 31569ms total)
T4E30 11357:878 JLINK_ReadMemEx(0x40012400, 0x004C Bytes, ..., Flags = 0x02000004) -- CPU_ReadMem(76 bytes @ 0x40012400) - Data: 10 00 00 00 00 01 00 00 03 01 1E 00 00 00 00 00 ...  returns 0x4C (0002ms, 31571ms total)
T4E30 11357:880 JLINK_ReadMemEx(0x4001244C, 0x0004 Bytes, ..., Flags = 0x02000004) -- CPU_ReadMem(4 bytes @ 0x4001244C) - Data: EF 07 00 00  returns 0x04 (0001ms, 31572ms total)
T4E30 11357:884 JLINK_ReadMemEx(0x08001154, 0x003C Bytes, ..., Flags = 0x02000000) -- CPU_ReadMem(128 bytes @ 0x08001140) -- Updating C cache (128 bytes @ 0x08001140) -- Read from C cache (60 bytes @ 0x08001154) - Data: 00 20 12 49 08 60 FF F7 51 FB 18 B1 10 A0 FF F7 ...  returns 0x3C (0001ms, 31573ms total)
T4E30 11357:885 JLINK_ReadMemEx(0x08001154, 0x0002 Bytes, ..., Flags = 0x02000000) -- Read from C cache (2 bytes @ 0x08001154) - Data: 00 20  returns 0x02 (0000ms, 31573ms total)
T4E30 11357:885 JLINK_ReadMemEx(0x08001156, 0x0002 Bytes, ..., Flags = 0x02000000) -- Read from C cache (2 bytes @ 0x08001156) - Data: 12 49  returns 0x02 (0000ms, 31573ms total)
T4E30 11357:885 JLINK_ReadMemEx(0x08001156, 0x0002 Bytes, ..., Flags = 0x02000000) -- Read from C cache (2 bytes @ 0x08001156) - Data: 12 49  returns 0x02 (0000ms, 31573ms total)
T4E30 11357:885 JLINK_ReadMemEx(0x08001158, 0x003C Bytes, ..., Flags = 0x02000000) -- Read from C cache (60 bytes @ 0x08001158) - Data: 08 60 FF F7 51 FB 18 B1 10 A0 FF F7 6D FF 02 E0 ...  returns 0x3C (0000ms, 31573ms total)
T4E30 11357:885 JLINK_ReadMemEx(0x08001158, 0x0002 Bytes, ..., Flags = 0x02000000) -- Read from C cache (2 bytes @ 0x08001158) - Data: 08 60  returns 0x02 (0000ms, 31573ms total)
T4E30 11357:885 JLINK_ReadMemEx(0x08001158, 0x003C Bytes, ..., Flags = 0x02000000) -- Read from C cache (60 bytes @ 0x08001158) - Data: 08 60 FF F7 51 FB 18 B1 10 A0 FF F7 6D FF 02 E0 ...  returns 0x3C (0000ms, 31573ms total)
T4E30 11357:885 JLINK_ReadMemEx(0x08001158, 0x0002 Bytes, ..., Flags = 0x02000000) -- Read from C cache (2 bytes @ 0x08001158) - Data: 08 60  returns 0x02 (0000ms, 31573ms total)
T4E30 11357:885 JLINK_ReadMemEx(0x0800115A, 0x0002 Bytes, ..., Flags = 0x02000000) -- Read from C cache (2 bytes @ 0x0800115A) - Data: FF F7  returns 0x02 (0000ms, 31573ms total)
TB114 11358:173 JLINK_ReadMemEx(0x08001154, 0x0002 Bytes, ..., Flags = 0x02000000) -- Read from C cache (2 bytes @ 0x08001154) - Data: 00 20  returns 0x02 (0000ms, 31573ms total)
TB114 11358:173 JLINK_Step() -- Read from C cache (2 bytes @ 0x08001154) -- CPU_ReadMem(4 bytes @ 0xE0001004) -- Simulated  returns 0x00 (0001ms, 31574ms total)
TB114 11358:174 JLINK_ReadReg(R15 (PC))  returns 0x08001156 (0000ms, 31574ms total)
TB114 11358:174 JLINK_ReadReg(XPSR)  returns 0x61000000 (0000ms, 31574ms total)
TB114 11358:174 JLINK_Step() -- Read from C cache (2 bytes @ 0x08001156) -- Read from C cache (4 bytes @ 0x080011A0) -- Simulated  returns 0x00 (0000ms, 31574ms total)
TB114 11358:174 JLINK_ReadReg(R15 (PC))  returns 0x08001158 (0000ms, 31574ms total)
TB114 11358:174 JLINK_ReadReg(XPSR)  returns 0x61000000 (0000ms, 31574ms total)
TB114 11358:174 JLINK_Step() -- Read from C cache (2 bytes @ 0x08001158) -- Not simulated -- CPU_WriteMem(4 bytes @ 0xE0002008) -- CPU_WriteMem(4 bytes @ 0xE0001004)  returns 0x00 (0007ms, 31581ms total)
TB114 11358:181 JLINK_ReadReg(R15 (PC))  returns 0x0800115A (0000ms, 31581ms total)
TB114 11358:181 JLINK_ReadReg(XPSR)  returns 0x61000000 (0000ms, 31581ms total)
TB114 11358:181 JLINK_ReadReg(R0)  returns 0x00000000 (0000ms, 31581ms total)
TB114 11358:181 JLINK_ReadReg(R1)  returns 0x422181A8 (0000ms, 31581ms total)
TB114 11358:181 JLINK_ReadReg(R2)  returns 0x005E0103 (0000ms, 31581ms total)
TB114 11358:181 JLINK_ReadReg(R3)  returns 0x00000006 (0000ms, 31581ms total)
TB114 11358:181 JLINK_ReadReg(R4)  returns 0x08001218 (0000ms, 31581ms total)
TB114 11358:181 JLINK_ReadReg(R5)  returns 0x08001218 (0000ms, 31581ms total)
TB114 11358:181 JLINK_ReadReg(R6)  returns 0x00000000 (0000ms, 31581ms total)
TB114 11358:181 JLINK_ReadReg(R7)  returns 0x00000000 (0000ms, 31581ms total)
TB114 11358:181 JLINK_ReadReg(R8)  returns 0x00000000 (0000ms, 31581ms total)
TB114 11358:181 JLINK_ReadReg(R9)  returns 0x20000160 (0000ms, 31581ms total)
TB114 11358:181 JLINK_ReadReg(R10)  returns 0x00000000 (0000ms, 31581ms total)
TB114 11358:181 JLINK_ReadReg(R11)  returns 0x00000000 (0000ms, 31581ms total)
TB114 11358:181 JLINK_ReadReg(R12)  returns 0x0000001B (0000ms, 31581ms total)
TB114 11358:181 JLINK_ReadReg(R13 (SP))  returns 0x20000430 (0000ms, 31581ms total)
TB114 11358:181 JLINK_ReadReg(R14)  returns 0x08000755 (0000ms, 31581ms total)
TB114 11358:181 JLINK_ReadReg(R15 (PC))  returns 0x0800115A (0000ms, 31581ms total)
TB114 11358:181 JLINK_ReadReg(XPSR)  returns 0x61000000 (0000ms, 31581ms total)
TB114 11358:181 JLINK_ReadReg(MSP)  returns 0x20000430 (0000ms, 31581ms total)
TB114 11358:181 JLINK_ReadReg(PSP)  returns 0x20001000 (0000ms, 31581ms total)
TB114 11358:181 JLINK_ReadReg(CFBP)  returns 0x00000000 (0000ms, 31581ms total)
T4E30 11358:182 JLINK_ReadMemEx(0x20000434, 0x0020 Bytes, ..., Flags = 0x02000000) -- CPU_ReadMem(128 bytes @ 0x20000400) -- Updating C cache (128 bytes @ 0x20000400) -- Read from C cache (32 bytes @ 0x20000434) - Data: 43 61 6E 20 79 6F 75 20 67 6F 20 6F 75 74 20 6F ...  returns 0x20 (0001ms, 31582ms total)
T4E30 11358:183 JLINK_ReadMemEx(0x40012400, 0x004C Bytes, ..., Flags = 0x02000004) -- CPU_ReadMem(76 bytes @ 0x40012400) - Data: 10 00 00 00 00 01 00 00 03 01 1E 00 00 00 00 00 ...  returns 0x4C (0001ms, 31583ms total)
T4E30 11358:184 JLINK_ReadMemEx(0x4001244C, 0x0004 Bytes, ..., Flags = 0x02000004) -- CPU_ReadMem(4 bytes @ 0x4001244C) - Data: 98 08 00 00  returns 0x04 (0001ms, 31584ms total)
T4E30 11358:189 JLINK_ReadMemEx(0x0800115A, 0x0002 Bytes, ..., Flags = 0x02000000) -- CPU_ReadMem(64 bytes @ 0x08001140) -- Updating C cache (64 bytes @ 0x08001140) -- Read from C cache (2 bytes @ 0x0800115A) - Data: FF F7  returns 0x02 (0001ms, 31585ms total)
T4E30 11358:190 JLINK_ReadMemEx(0x0800115C, 0x003C Bytes, ..., Flags = 0x02000000) -- CPU_ReadMem(64 bytes @ 0x08001180) -- Updating C cache (64 bytes @ 0x08001180) -- Read from C cache (60 bytes @ 0x0800115C) - Data: 51 FB 18 B1 10 A0 FF F7 6D FF 02 E0 12 A0 FF F7 ...  returns 0x3C (0001ms, 31586ms total)
T4E30 11358:191 JLINK_ReadMemEx(0x0800115C, 0x0002 Bytes, ..., Flags = 0x02000000) -- Read from C cache (2 bytes @ 0x0800115C) - Data: 51 FB  returns 0x02 (0000ms, 31586ms total)
T4E30 11358:191 JLINK_ReadMemEx(0x0800115E, 0x0002 Bytes, ..., Flags = 0x02000000) -- Read from C cache (2 bytes @ 0x0800115E) - Data: 18 B1  returns 0x02 (0000ms, 31586ms total)
T4E30 11358:191 JLINK_ReadMemEx(0x08001160, 0x003C Bytes, ..., Flags = 0x02000000) -- Read from C cache (60 bytes @ 0x08001160) - Data: 10 A0 FF F7 6D FF 02 E0 12 A0 FF F7 69 FF 04 E0 ...  returns 0x3C (0000ms, 31586ms total)
T4E30 11358:191 JLINK_ReadMemEx(0x08001160, 0x0002 Bytes, ..., Flags = 0x02000000) -- Read from C cache (2 bytes @ 0x08001160) - Data: 10 A0  returns 0x02 (0000ms, 31586ms total)
TB114 11358:574 JLINK_ReadMemEx(0x0800115A, 0x0002 Bytes, ..., Flags = 0x02000000) -- Read from C cache (2 bytes @ 0x0800115A) - Data: FF F7  returns 0x02 (0000ms, 31586ms total)
TB114 11358:574 JLINK_SetBPEx(Addr = 0x0800115E, Type = 0xFFFFFFF2)  returns 0x00000004 (0000ms, 31586ms total)
TB114 11358:574 JLINK_Go() -- CPU_WriteMem(4 bytes @ 0xE0002000) -- CPU_ReadMem(4 bytes @ 0xE0001000) -- CPU_WriteMem(4 bytes @ 0xE0002008) (0004ms, 31590ms total)
TB114 11358:678 JLINK_IsHalted()  returns TRUE (0003ms, 31593ms total)
TB114 11358:681 JLINK_Halt()  returns 0x00 (0000ms, 31590ms total)
TB114 11358:681 JLINK_IsHalted()  returns TRUE (0000ms, 31590ms total)
TB114 11358:681 JLINK_IsHalted()  returns TRUE (0000ms, 31590ms total)
TB114 11358:681 JLINK_IsHalted()  returns TRUE (0000ms, 31590ms total)
TB114 11358:681 JLINK_ReadReg(R15 (PC))  returns 0x0800115E (0000ms, 31590ms total)
TB114 11358:681 JLINK_ReadReg(XPSR)  returns 0x01000000 (0000ms, 31590ms total)
TB114 11358:681 JLINK_ClrBPEx(BPHandle = 0x00000004)  returns 0x00 (0000ms, 31590ms total)
TB114 11358:681 JLINK_ReadMemU32(0xE000ED30, 0x0001 Items, ...) -- CPU_ReadMem(4 bytes @ 0xE000ED30) - Data: 02 00 00 00  returns 1 (0001ms, 31591ms total)
TB114 11358:682 JLINK_ReadMemU32(0xE0001028, 0x0001 Items, ...) -- CPU_ReadMem(4 bytes @ 0xE0001028) - Data: 00 00 00 00  returns 1 (0000ms, 31591ms total)
TB114 11358:682 JLINK_ReadMemU32(0xE0001038, 0x0001 Items, ...) -- CPU_ReadMem(4 bytes @ 0xE0001038) - Data: 00 02 00 00  returns 1 (0001ms, 31592ms total)
TB114 11358:683 JLINK_ReadMemU32(0xE0001048, 0x0001 Items, ...) -- CPU_ReadMem(4 bytes @ 0xE0001048) - Data: 00 00 00 00  returns 1 (0001ms, 31593ms total)
TB114 11358:684 JLINK_ReadMemU32(0xE0001058, 0x0001 Items, ...) -- CPU_ReadMem(4 bytes @ 0xE0001058) - Data: 00 00 00 00  returns 1 (0001ms, 31594ms total)
TB114 11358:685 JLINK_ReadMemEx(0x0800115C, 0x003C Bytes, ..., Flags = 0x02000000) -- CPU_ReadMem(128 bytes @ 0x08001140) -- Updating C cache (128 bytes @ 0x08001140) -- Read from C cache (60 bytes @ 0x0800115C) - Data: 51 FB 18 B1 10 A0 FF F7 6D FF 02 E0 12 A0 FF F7 ...  returns 0x3C (0001ms, 31595ms total)
TB114 11358:686 JLINK_ReadMemEx(0x0800115C, 0x0002 Bytes, ..., Flags = 0x02000000) -- Read from C cache (2 bytes @ 0x0800115C) - Data: 51 FB  returns 0x02 (0000ms, 31595ms total)
TB114 11358:686 JLINK_ReadMemEx(0x0800115E, 0x0002 Bytes, ..., Flags = 0x02000000) -- Read from C cache (2 bytes @ 0x0800115E) - Data: 18 B1  returns 0x02 (0000ms, 31595ms total)
TB114 11358:686 JLINK_Step() -- Read from C cache (2 bytes @ 0x0800115E) -- CPU_ReadMem(4 bytes @ 0xE0001004) -- Simulated  returns 0x00 (0002ms, 31597ms total)
TB114 11358:688 JLINK_ReadReg(R15 (PC))  returns 0x08001160 (0000ms, 31597ms total)
TB114 11358:688 JLINK_ReadReg(XPSR)  returns 0x01000000 (0000ms, 31597ms total)
TB114 11358:688 JLINK_ReadReg(R0)  returns 0x00000001 (0000ms, 31597ms total)
TB114 11358:688 JLINK_ReadReg(R1)  returns 0x422181A8 (0000ms, 31597ms total)
TB114 11358:688 JLINK_ReadReg(R2)  returns 0xFFFFFFFF (0000ms, 31597ms total)
TB114 11358:688 JLINK_ReadReg(R3)  returns 0x000000FF (0000ms, 31597ms total)
TB114 11358:688 JLINK_ReadReg(R4)  returns 0x08001218 (0000ms, 31597ms total)
TB114 11358:688 JLINK_ReadReg(R5)  returns 0x08001218 (0000ms, 31597ms total)
TB114 11358:688 JLINK_ReadReg(R6)  returns 0x00000000 (0000ms, 31597ms total)
TB114 11358:688 JLINK_ReadReg(R7)  returns 0x00000000 (0000ms, 31597ms total)
TB114 11358:688 JLINK_ReadReg(R8)  returns 0x00000000 (0000ms, 31597ms total)
TB114 11358:688 JLINK_ReadReg(R9)  returns 0x20000160 (0000ms, 31597ms total)
TB114 11358:688 JLINK_ReadReg(R10)  returns 0x00000000 (0000ms, 31597ms total)
TB114 11358:688 JLINK_ReadReg(R11)  returns 0x00000000 (0000ms, 31597ms total)
TB114 11358:688 JLINK_ReadReg(R12)  returns 0x0000001B (0000ms, 31597ms total)
TB114 11358:688 JLINK_ReadReg(R13 (SP))  returns 0x20000430 (0000ms, 31597ms total)
TB114 11358:688 JLINK_ReadReg(R14)  returns 0x08000BDB (0000ms, 31597ms total)
TB114 11358:688 JLINK_ReadReg(R15 (PC))  returns 0x08001160 (0000ms, 31597ms total)
TB114 11358:688 JLINK_ReadReg(XPSR)  returns 0x01000000 (0000ms, 31597ms total)
TB114 11358:688 JLINK_ReadReg(MSP)  returns 0x20000430 (0000ms, 31597ms total)
TB114 11358:688 JLINK_ReadReg(PSP)  returns 0x20001000 (0000ms, 31597ms total)
TB114 11358:688 JLINK_ReadReg(CFBP)  returns 0x00000000 (0000ms, 31597ms total)
T4E30 11358:689 JLINK_ReadMemEx(0x20000434, 0x0020 Bytes, ..., Flags = 0x02000000) -- CPU_ReadMem(128 bytes @ 0x20000400) -- Updating C cache (128 bytes @ 0x20000400) -- Read from C cache (32 bytes @ 0x20000434) - Data: 43 61 6E 20 79 6F 75 20 67 6F 20 6F 75 74 20 6F ...  returns 0x20 (0001ms, 31598ms total)
T4E30 11358:690 JLINK_ReadMemEx(0x40012400, 0x004C Bytes, ..., Flags = 0x02000004) -- CPU_ReadMem(76 bytes @ 0x40012400) - Data: 10 00 00 00 00 01 00 00 03 01 1E 00 00 00 00 00 ...  returns 0x4C (0001ms, 31599ms total)
T4E30 11358:691 JLINK_ReadMemEx(0x4001244C, 0x0004 Bytes, ..., Flags = 0x02000004) -- CPU_ReadMem(4 bytes @ 0x4001244C) - Data: 99 08 00 00  returns 0x04 (0001ms, 31600ms total)
T4E30 11358:695 JLINK_ReadMemEx(0x08001160, 0x003C Bytes, ..., Flags = 0x02000000) -- Read from C cache (60 bytes @ 0x08001160) - Data: 10 A0 FF F7 6D FF 02 E0 12 A0 FF F7 69 FF 04 E0 ...  returns 0x3C (0000ms, 31600ms total)
T4E30 11358:695 JLINK_ReadMemEx(0x08001160, 0x0002 Bytes, ..., Flags = 0x02000000) -- Read from C cache (2 bytes @ 0x08001160) - Data: 10 A0  returns 0x02 (0000ms, 31600ms total)
T4E30 11358:695 JLINK_ReadMemEx(0x08001162, 0x0002 Bytes, ..., Flags = 0x02000000) -- Read from C cache (2 bytes @ 0x08001162) - Data: FF F7  returns 0x02 (0000ms, 31600ms total)
T4E30 11360:156 JLINK_ReadMemEx(0x0800115A, 0x0002 Bytes, ..., Flags = 0x02000000) -- Read from C cache (2 bytes @ 0x0800115A) - Data: FF F7  returns 0x02 (0000ms, 31600ms total)
T4E30 11360:156 JLINK_ReadMemEx(0x0800115C, 0x003C Bytes, ..., Flags = 0x02000000) -- Read from C cache (60 bytes @ 0x0800115C) - Data: 51 FB 18 B1 10 A0 FF F7 6D FF 02 E0 12 A0 FF F7 ...  returns 0x3C (0000ms, 31600ms total)
